Q: already installed, replacing
stashing as Q:0
npn: already installed, replacing
stashing as npn:0
pnp: already installed, replacing
stashing as pnp:0
npn1: already installed, replacing
stashing as npn1:0
pnp1: already installed, replacing
stashing as pnp1:0
difpair ckt - simple differential pair 
#           v(1)       v(2)       v(3)       v(4)       v(5)       v(6)      
+ v(7)       v(8)       v(9)      
 27.       -76.611p   -0.0076611 -0.0076611  5.2291     5.2291    -0.76997   
+-11.221     12.       -12.       
#Time       qbc(q1)    qbc(q2)    qbc(q3)    qbc(q4)    qbc(qnl)  
 0.        -1.E-18    -1.E-18    -1.E-18    -53.E-21    ??        
 20.n      -1.E-18    -1.E-18    -1.E-18    -53.E-21    ??        
 40.n       145.03f   -1.E-18    -1.E-18    -53.E-21    ??        
 60.n       412.86f   -1.E-18    -1.E-18    -53.E-21    ??        
 80.n       270.56f   -1.E-18    -1.E-18    -53.E-21    ??        
 100.n     -1.E-18    -1.E-18    -1.E-18    -53.E-21    ??        
 120.n     -1.E-18    -1.E-18    -1.E-18    -53.E-21    ??        
 140.n     -1.E-18     109.95f   -1.E-18    -53.E-21    ??        
 160.n     -1.E-18     332.45f   -1.E-18    -53.E-21    ??        
 180.n     -1.E-18     163.08f   -1.E-18    -53.E-21    ??        
 200.n     -1.E-18    -1.E-18    -1.E-18    -53.E-21    ??        
#Time       cmu(q1)    cmu(q2)    cmu(q3)    cmu(q4)    cmu(qnl)  
 0.         0.         0.         0.         36.6E-18   ??        
 20.n       0.         0.         0.         36.6E-18   ??        
 40.n       5.6075p    0.         0.         36.6E-18   ??        
 60.n       15.963p    0.         0.         36.6E-18   ??        
 80.n       10.461p    0.         0.         36.6E-18   ??        
 100.n      0.         0.         0.         36.6E-18   ??        
 120.n      0.         0.         0.         36.6E-18   ??        
 140.n      0.         4.2511p    0.         36.6E-18   ??        
 160.n      0.         12.854p    0.         36.6E-18   ??        
 180.n      0.         6.3051p    0.         36.6E-18   ??        
 200.n      0.         0.         0.         36.6E-18   ??        
#Time       vbc(q1)    vbc(q2)    vbc(q3)    vbc(q4)    vbc(qnl)  
 0.        -5.2375    -5.2375    -10.453    -0.0014159  ??        
 20.n      -0.66263   -9.7561    -10.489    -0.0014159  ??        
 40.n       0.30739   -10.825    -10.507    -0.0014159  ??        
 60.n       0.33445   -10.846    -10.508    -0.0014159  ??        
 80.n       0.32352   -10.574    -10.502    -0.0014159  ??        
 100.n     -5.2375    -5.2375    -10.453    -0.0014159  ??        
 120.n     -9.8192    -0.72992   -10.43     -0.0014159  ??        
 140.n     -11.005     0.30023   -10.415    -0.0014159  ??        
 160.n     -11.027     0.32884   -10.415    -0.0014159  ??        
 180.n     -10.681     0.31042   -10.444    -0.0014159  ??        
 200.n     -5.2375    -5.2375    -10.453    -0.0014159  ??        
v(5)   0.                3.               6.                9.              12.
        +-----------------+----------------+-----------------+----------------+
 0.     |                 .            *   .                 .                |
 10.n   |                 .                .          *      .                |
 20.n   |                 .                .                 .   *            |
 30.n   |                 .                .                 .        *       |
 40.n   |                 .                .                 .         *      |
 50.n   |                 .                .                 .         *      |
 60.n   |                 .                .                 .         *      |
 70.n   |                 .                .                 .         *      |
 80.n   |                 .                .                 .        *       |
 90.n   |                 .                .                 .   *            |
 100.n  |                 .            *   .                 .                |
 110.n  |              *  .                .                 .                |
 120.n  |   *             .                .                 .                |
 130.n  *                 .                .                 .                |
 140.n  *                 .                .                 .                |
 150.n  *                 .                .                 .                |
 160.n  *                 .                .                 .                |
 170.n  *                 .                .                 .                |
 180.n  *                 .                .                 .                |
 190.n  |      *          .                .                 .                |
 200.n  |                 .            *   .                 .                |
 210.n  |                 .                .          *      .                |
 220.n  |                 .                .                 .   *            |
 230.n  |                 .                .                 .        *       |
 240.n  |                 .                .                 .         *      |
 250.n  |                 .                .                 .         *      |
 260.n  |                 .                .                 .         *      |
 270.n  |                 .                .                 .         *      |
 280.n  |                 .                .                 .        *       |
 290.n  |                 .                .                 .   *            |
 300.n  |                 .            *   .                 .                |
 310.n  |              *  .                .                 .                |
 320.n  |   *             .                .                 .                |
 330.n  *                 .                .                 .                |
 340.n  *                 .                .                 .                |
 350.n  *                 .                .                 .                |
 360.n  *                 .                .                 .                |
 370.n  *                 .                .                 .                |
 380.n  *                 .                .                 .                |
 390.n  |      *          .                .                 .                |
 400.n  |                 .            *   .                 .                |
 410.n  |                 .                .          *      .                |
 420.n  |                 .                .                 .   *            |
 430.n  |                 .                .                 .        *       |
 440.n  |                 .                .                 .         *      |
 450.n  |                 .                .                 .         *      |
 460.n  |                 .                .                 .         *      |
 470.n  |                 .                .                 .         *      |
 480.n  |                 .                .                 .        *       |
 490.n  |                 .                .                 .   *            |
 500.n  |                 .            *   .                 .                |
        +-----------------+----------------+-----------------+----------------+
vm(5)  0.                25.              50.               75.            100.
vp(5)-180.              -90.              0.                90.            180.
        +-----------------+----------------+-----------------+----------------+
 10.K   |                 .                +                 .       *        |
 17.783K|                 .                +                 .       *        |
 31.623K|                 .                +                 .       *        |
 56.234K|                 .                +                 .       *        |
 100.K  |                 .                +                 .       *        |
 177.83K|                 .                +                 .       *        |
 316.23K|                 .                +                 .       *        |
 562.34K|                 .                +                 .       *        |
 1.Meg  |                 .                +                 .       *        |
 1.7783M|                 .                +                 .       *        |
 3.1623M|                 .                +                 .       *        |
 5.6234M|                 .                +                 .       *        |
 10.Meg |                 .                +                 .       *        |
 17.783M|                 .                +                 .       *        |
 31.623M|                 .                +                 .       *        |
 56.234M|                 .                +                 .       *        |
 100.Meg|                 .                +                 .       *        |
 177.83M|                 .                +                 .       *        |
 316.23M|                 .                +                 .       *        |
 562.34M|                 .                +                 .       *        |
 1.G    |                 .                +                 .       *        |
 1.7783G|                 .                +                 .       *        |
 3.1623G|                 .                +                 .       *        |
 5.6234G|                 .                +                 .       *        |
 10.G   |                 .                +                 .       *        |
        +-----------------+----------------+-----------------+----------------+
#           v(1)       v(2)       v(3)       v(4)       v(5)       v(6)      
+ v(7)       v(8)       v(9)      
 27.       -76.611p   -0.0076611 -0.0076611  5.2291     5.2291    -0.76997   
+-11.221     12.       -12.       
vm(5)  0.                25.              50.               75.            100.
vp(5)-180.              -90.              0.                90.            180.
        +-----------------+----------------+-----------------+----------------+
 10.K   |                 .                +                 .       *        |
 17.783K|                 .                +                 .       *        |
 31.623K|                 .                +                 .       *        |
 56.234K|                 .                +                 .       *        |
 100.K  |                 .                +                 .       *        |
 177.83K|                 .                +                 .       *        |
 316.23K|                 .                +                 .       *        |
 562.34K|                 .                +                 .       *        |
 1.Meg  |                 .                +                 .       *        |
 1.7783M|                 .                +                 .       *        |
 3.1623M|                 .                +                 .       *        |
 5.6234M|                 .                +                 .       *        |
 10.Meg |                 .                +                 .       *        |
 17.783M|                 .                +                 .       *        |
 31.623M|                 .                +                 .       *        |
 56.234M|                 .                +                 .       *        |
 100.Meg|                 .                +                 .       *        |
 177.83M|                 .                +                 .       *        |
 316.23M|                 .                +                 .       *        |
 562.34M|                 .                +                 .       *        |
 1.G    |                 .                +                 .       *        |
 1.7783G|                 .                +                 .       *        |
 3.1623G|                 .                +                 .       *        |
 5.6234G|                 .                +                 .       *        |
 10.G   |                 .                +                 .       *        |
        +-----------------+----------------+-----------------+----------------+
Gnucap   System status
iterations: op=9, dc=0, tran=439, fourier=0, total=1283
transient timesteps: accepted=140, rejected=3, total=143
nodes: user=9, subckt=0, model=4, total=13
dctran density=65.7%, ac density=65.7%
