Q: already installed, replacing
stashing as Q:0
npn: already installed, replacing
stashing as npn:0
pnp: already installed, replacing
stashing as pnp:0
VBIC Output Test 
#           v(v1_n)    i(VC)      i(VB)     
 0.         0.7        9.5941u   -246.31u   
 1.         0.7       -45.927u   -568.16n   
 2.         0.7       -49.038u   -549.33n   
 3.         0.7       -52.244u   -309.37n   
 4.         0.7       -56.275u    676.33n   
 5.         0.7       -62.014u    3.1213u   
 0.         0.8        178.16u   -0.0017409 
 1.         0.8       -0.0012462 -23.882u   
 2.         0.8       -0.001285  -23.562u   
 3.         0.8       -0.001327  -19.323u   
 4.         0.8       -0.0013995  0.        
 5.         0.8       -0.001542   51.348u   
 0.         0.9        855.56u   -0.005774  
 1.         0.9       -0.0084204 -475.11u   
 2.         0.9       -0.0084856 -472.71u   
 3.         0.9       -0.0085519 -465.97u   
 4.         0.9       -0.0087506 -420.87u   
 5.         0.9       -0.0093168 -273.15u   
 0.         1.         0.0018166 -0.011725  
 1.         1.        -0.018202  -0.0031267 
 2.         1.        -0.021263  -0.002588  
 3.         1.        -0.021353  -0.002577  
 4.         1.        -0.021426  -0.0025668 
 5.         1.        -0.021726  -0.0025077 
