Copyright 1982-2007, Albert Davis
Gnucap comes with ABSOLUTELY NO WARRANTY
This is free software, and you are welcome
to redistribute it under the terms of 
the GNU General Public License, version 3 or later.
See the file "COPYING" for details.
Q: already installed, replacing
stashing as Q:0
npn: already installed, replacing
stashing as npn:0
pnp: already installed, replacing
stashing as pnp:0
difpair ckt - simple differential pair 
#           v(1)       v(2)       v(3)       v(4)       v(5)       v(6)      
+ v(7)       v(8)       v(9)      
 27.       -1.578n    -0.1578    -0.1578    -0.8342    -0.8342    -1.0113    
+-1.0118     12.       -12.       
#Time       qbc(q1)    qbc(q2)    qbc(q3)    qbc(q4)    qbc(qnl)  
 0.         4.9529u    4.9529u   -40.E-18   -40.E-18    ??        
 20.n       4.9529u    4.9529u   -40.E-18   -40.E-18    ??        
 40.n       4.9529u    4.9529u   -40.E-18   -40.E-18    ??        
 60.n       4.9529u    4.9529u   -40.E-18   -40.E-18    ??        
 80.n       4.9529u    4.9529u   -40.E-18   -40.E-18    ??        
 100.n      4.9529u    4.9529u   -40.E-18   -40.E-18    ??        
 120.n      4.9529u    4.9529u   -40.E-18   -40.E-18    ??        
 140.n      4.9529u    4.9529u   -40.E-18   -40.E-18    ??        
 160.n      4.9529u    4.9529u   -40.E-18   -40.E-18    ??        
 180.n      4.9529u    4.9529u   -40.E-18   -40.E-18    ??        
 200.n      4.9529u    4.9529u   -40.E-18   -40.E-18    ??        
#Time       cmu(q1)    cmu(q2)    cmu(q3)    cmu(q4)    cmu(qnl)  
 0.         191.5u     191.5u     0.         0.         ??        
 20.n       191.5u     191.5u     0.         0.         ??        
 40.n       191.5u     191.5u     0.         0.         ??        
 60.n       191.5u     191.5u     0.         0.         ??        
 80.n       191.5u     191.5u     0.         0.         ??        
 100.n      191.5u     191.5u     0.         0.         ??        
 120.n      191.5u     191.5u     0.         0.         ??        
 140.n      191.5u     191.5u     0.         0.         ??        
 160.n      191.5u     191.5u     0.         0.         ??        
 180.n      191.5u     191.5u     0.         0.         ??        
 200.n      191.5u     191.5u     0.         0.         ??        
#Time       vbc(q1)    vbc(q2)    vbc(q3)    vbc(q4)    vbc(qnl)  
 0.         0.66063    0.66063   -9.9819    -9.9814     ??        
 20.n       0.66063    0.66063   -9.9819    -9.9814     ??        
 40.n       0.66063    0.66063   -9.9819    -9.9814     ??        
 60.n       0.66063    0.66063   -9.9819    -9.9814     ??        
 80.n       0.66063    0.66063   -9.9819    -9.9814     ??        
 100.n      0.66063    0.66063   -9.9819    -9.9814     ??        
 120.n      0.66063    0.66063   -9.9819    -9.9814     ??        
 140.n      0.66063    0.66063   -9.9819    -9.9814     ??        
 160.n      0.66063    0.66063   -9.9819    -9.9814     ??        
 180.n      0.66063    0.66063   -9.9819    -9.9814     ??        
 200.n      0.66063    0.66063   -9.9819    -9.9814     ??        
v(5)   2.                4.               6.                8.              10.
        +-----------------+----------------+-----------------+----------------+
 0.     *                 .                .                 .                |
 10.n   *                 .                .                 .                |
 20.n   *                 .                .                 .                |
 30.n   *                 .                .                 .                |
 40.n   *                 .                .                 .                |
 50.n   *                 .                .                 .                |
 60.n   *                 .                .                 .                |
 70.n   *                 .                .                 .                |
 80.n   *                 .                .                 .                |
 90.n   *                 .                .                 .                |
 100.n  *                 .                .                 .                |
 110.n  *                 .                .                 .                |
 120.n  *                 .                .                 .                |
 130.n  *                 .                .                 .                |
 140.n  *                 .                .                 .                |
 150.n  *                 .                .                 .                |
 160.n  *                 .                .                 .                |
 170.n  *                 .                .                 .                |
 180.n  *                 .                .                 .                |
 190.n  *                 .                .                 .                |
 200.n  *                 .                .                 .                |
 210.n  *                 .                .                 .                |
 220.n  *                 .                .                 .                |
 230.n  *                 .                .                 .                |
 240.n  *                 .                .                 .                |
 250.n  *                 .                .                 .                |
 260.n  *                 .                .                 .                |
 270.n  *                 .                .                 .                |
 280.n  *                 .                .                 .                |
 290.n  *                 .                .                 .                |
 300.n  *                 .                .                 .                |
 310.n  *                 .                .                 .                |
 320.n  *                 .                .                 .                |
 330.n  *                 .                .                 .                |
 340.n  *                 .                .                 .                |
 350.n  *                 .                .                 .                |
 360.n  *                 .                .                 .                |
 370.n  *                 .                .                 .                |
 380.n  *                 .                .                 .                |
 390.n  *                 .                .                 .                |
 400.n  *                 .                .                 .                |
 410.n  *                 .                .                 .                |
 420.n  *                 .                .                 .                |
 430.n  *                 .                .                 .                |
 440.n  *                 .                .                 .                |
 450.n  *                 .                .                 .                |
 460.n  *                 .                .                 .                |
 470.n  *                 .                .                 .                |
 480.n  *                 .                .                 .                |
 490.n  *                 .                .                 .                |
 500.n  *                 .                .                 .                |
        +-----------------+----------------+-----------------+----------------+
vm(5)  0.                25.              50.               75.            100.
vp(5)-180.              -90.              0.                90.            180.
        +-----------------+----------------+-----------------+----------------+
 10.K   *                 .                +                 .                |
 17.783K*                 .                +                 .                |
 31.623K*                 .                +                 .                |
 56.234K*                 .                +                 .                |
 100.K  *                 .                +                 .                |
 177.83K*                 .                +                 .                |
 316.23K*                 .                +                 .                |
 562.34K*                 .                +                 .                |
 1.Meg  *                 .                +                 .                |
 1.7783M*                 .                +                 .                |
 3.1623M*                 .                +                 .                |
 5.6234M*                 .                +                 .                |
 10.Meg *                 .                +                 .                |
 17.783M*                 .                +                 .                |
 31.623M*                 .                +                 .                |
 56.234M*                 .                +                 .                |
 100.Meg*                 .                +                 .                |
 177.83M*                 .                +                 .                |
 316.23M*                 .                +                 .                |
 562.34M*                 .                +                 .                |
 1.G    *                 .                +                 .                |
 1.7783G*                 .                +                 .                |
 3.1623G*                 .                +                 .                |
 5.6234G*                 .                +                 .                |
 10.G   *                 .                +                 .                |
        +-----------------+----------------+-----------------+----------------+
#           v(1)       v(2)       v(3)       v(4)       v(5)       v(6)      
+ v(7)       v(8)       v(9)      
 27.       -1.578n    -0.1578    -0.1578    -0.8342    -0.8342    -1.0113    
+-1.0118     12.       -12.       
vm(5)  0.                25.              50.               75.            100.
vp(5)-180.              -90.              0.                90.            180.
        +-----------------+----------------+-----------------+----------------+
 10.K   *                 .                +                 .                |
 17.783K*                 .                +                 .                |
 31.623K*                 .                +                 .                |
 56.234K*                 .                +                 .                |
 100.K  *                 .                +                 .                |
 177.83K*                 .                +                 .                |
 316.23K*                 .                +                 .                |
 562.34K*                 .                +                 .                |
 1.Meg  *                 .                +                 .                |
 1.7783M*                 .                +                 .                |
 3.1623M*                 .                +                 .                |
 5.6234M*                 .                +                 .                |
 10.Meg *                 .                +                 .                |
 17.783M*                 .                +                 .                |
 31.623M*                 .                +                 .                |
 56.234M*                 .                +                 .                |
 100.Meg*                 .                +                 .                |
 177.83M*                 .                +                 .                |
 316.23M*                 .                +                 .                |
 562.34M*                 .                +                 .                |
 1.G    *                 .                +                 .                |
 1.7783G*                 .                +                 .                |
 3.1623G*                 .                +                 .                |
 5.6234G*                 .                +                 .                |
 10.G   *                 .                +                 .                |
        +-----------------+----------------+-----------------+----------------+
Gnucap   System status
iterations: op=16, dc=0, tran=533, fourier=0, total=1135
transient timesteps: accepted=115, rejected=1, total=116
nodes: user=9, subckt=0, model=4, total=13
dctran density=65.7%, ac density=65.7%
