Copyright 1982-2007, Albert Davis
Gnucap comes with ABSOLUTELY NO WARRANTY
This is free software, and you are welcome
to redistribute it under the terms of 
the GNU General Public License, version 3 or later.
See the file "COPYING" for details.
DCFL inverter circuit 
#           v(2)       v(3)       i(vdd)    
 0.         0.         0.         0.        
-1.         29.f      -0.0010251  0.        
-2.         4.f        1.9989    -2.0482u   
-3.         4.f        2.2362    -2.2913u   
-4.         5.f        2.5931    -2.6571u   
-5.         7.f        3.3447    -3.4272u   
-6.         8.f        4.1225    -4.224u    
-7.         9.f        4.3705    -4.4782u   
-8.         9.f        4.418     -4.5269u   
-9.         9.f        4.4262    -4.5353u   
-10.        9.f        4.4276    -4.5367u   
-11.        9.f        4.4278    -4.5369u   
 27.        9.f        4.4278    -4.5369u   
#           vgs(z1)    vgd(z1)    cg(z1)     cd(z1)     cgd(z1)   
 27.        4.4278     4.4278     0.02937   -0.014685   0.014685  
#           gm(z1)     gds(z1)    ggs(z1)    ggd(z1)   
 27.        0.         0.0037003  0.0095719  0.0095719 
#           qgs(z1)    cqgs(z1)   qgd(z1)    cqgd(z1)  
 27.        18.611f    0.         18.611f    0.        
#           cs(z1)     p(z1)     
 27.       -0.014685   0.035653  
#Time       v(2)       v(3)       i(vdd)    
 0.         9.f        4.4278    -4.5369u   
 20.p       7.9718n    4.76      -802.06u   
 40.p       8.3601n    4.9918    -841.12u   
 60.p       4.0898n    4.8595    -413.96u   
 80.p       3.9501n    4.6935    -399.82u   
 100.p      4.0474n    4.8091    -409.67u   
 120.p      3.9801n    4.7292    -402.86u   
 140.p      4.0269n    4.7848    -407.59u   
 160.p      3.9945n    4.7463    -404.31u   
 180.p      4.017n     4.773     -406.59u   
 200.p      4.0014n    4.7545    -405.01u   
 220.p      4.0123n    4.7673    -406.11u   
 240.p      4.0047n    4.7584    -405.35u   
 260.p      4.01n      4.7646    -405.88u   
 280.p      4.0063n    4.7603    -405.51u   
 300.p      4.0089n    4.7633    -405.76u   
 320.p      4.0071n    4.7612    -405.59u   
 340.p      4.0083n    4.7627    -405.71u   
 360.p      4.0075n    4.7617    -405.63u   
 380.p      4.0081n    4.7624    -405.68u   
 400.p      4.0077n    4.7619    -405.64u   
 420.p      4.0079n    4.7622    -405.67u   
 440.p      4.0077n    4.762     -405.65u   
 460.p      4.0079n    4.7621    -405.67u   
 480.p      4.0078n    4.762     -405.66u   
 500.p      4.0079n    4.7621    -405.66u   
 520.p      1.         1.7192    -0.0035045 
 540.p      1.         1.4747    -836.93u   
 560.p      1.         1.3051    -0.012002  
 580.p      1.         1.2767     0.0022118 
 600.p      1.         1.2924    -0.011954  
 620.p      1.         1.2837     0.0021851 
 640.p      1.         1.2885    -0.011939  
 660.p      1.         1.2859     0.0021769 
 680.p      1.         1.2874    -0.011935  
 700.p      1.         1.2865     0.0021744 
 720.p      1.         1.287     -0.011934  
 740.p      1.         1.2867     0.0021736 
 760.p      1.         1.2869    -0.011933  
 780.p      1.         1.2868     0.0021734 
 800.p      1.         1.2869    -0.011933  
 820.p      1.         1.2868     0.0021733 
 840.p      1.         1.2868    -0.011933  
 860.p      1.         1.2868     0.0021733 
 880.p      1.         1.2868    -0.011933  
 900.p      1.         1.2868     0.0021733 
 920.p      1.         1.2868    -0.011933  
 940.p      1.         1.2868     0.0021733 
 960.p      1.         1.2868    -0.011933  
 980.p      1.         1.2868     0.0021733 
 1.n        1.         1.2868    -0.011933  
