Copyright 1982-2007, Albert Davis
Gnucap comes with ABSOLUTELY NO WARRANTY
This is free software, and you are welcome
to redistribute it under the terms of 
the GNU General Public License, version 3 or later.
See the file "COPYING" for details.
DCFL inverter circuit 
#           v(1)       v(2)       v(3)       v(4)       i(vdd)    
 27.        2.         7.f        3.6519     1.08      -0.0064425 
#Time       v(1)       v(2)       v(3)       v(4)       i(vdd)    
 0.         2.         7.f        3.6519     1.08      -0.0064425 
 20.p       2.         17.589n    5.3038     2.4282    -0.014743  
 40.p       2.         7.3451n    4.3857     1.7324    -0.010539  
 60.p       2.         3.5479n    4.2156     1.5831    -0.0091313 
 80.p       2.         3.3668n    4.0004     1.4068    -0.0085215 
 100.p      2.         3.4639n    4.1157     1.5213    -0.0089161 
 120.p      2.         3.4154n    4.0581     1.4469    -0.0086634 
 140.p      2.         3.438n     4.085      1.4949    -0.0088248 
 160.p      2.         3.429n     4.0743     1.464     -0.0087221 
 180.p      2.         3.4313n    4.077      1.4837    -0.0087871 
 200.p      2.         3.432n     4.0779     1.4711    -0.0087461 
 220.p      2.         3.4301n    4.0757     1.4791    -0.0087718 
 240.p      2.         3.4322n    4.0782     1.4741    -0.0087557 
 260.p      2.         3.4303n    4.0759     1.4772    -0.0087657 
 280.p      2.         3.4319n    4.0778     1.4753    -0.0087595 
 300.p      2.         3.4307n    4.0763     1.4765    -0.0087633 
 320.p      2.         3.4316n    4.0774     1.4757    -0.008761  
 340.p      2.         3.4309n    4.0766     1.4762    -0.0087624 
 360.p      2.         3.4314n    4.0772     1.4759    -0.0087616 
 380.p      2.         3.4311n    4.0768     1.4761    -0.0087621 
 400.p      2.         3.4313n    4.077      1.476     -0.0087618 
 420.p      2.         3.4311n    4.0769     1.4761    -0.008762  
 440.p      2.         3.4313n    4.077      1.476     -0.0087619 
 460.p      2.         3.4312n    4.0769     1.476     -0.0087619 
 480.p      2.         3.4312n    4.077      1.476     -0.0087619 
 500.p      2.         3.4312n    4.0769     1.476     -0.0087619 
 520.p      2.         3.4312n    4.0769     1.476     -0.0087619 
 540.p      2.         3.4312n    4.0769     1.476     -0.0087619 
 560.p      2.         3.4312n    4.0769     1.476     -0.0087619 
 580.p      2.         3.4312n    4.0769     1.476     -0.0087619 
 600.p      2.         3.4312n    4.0769     1.476     -0.0087619 
 620.p      2.         3.4312n    4.0769     1.476     -0.0087619 
 640.p      2.         3.4312n    4.0769     1.476     -0.0087619 
 660.p      2.         3.4312n    4.0769     1.476     -0.0087619 
 680.p      2.         3.4312n    4.0769     1.476     -0.0087619 
 700.p      2.         3.4312n    4.0769     1.476     -0.0087619 
 720.p      2.         3.4312n    4.0769     1.476     -0.0087619 
 740.p      2.         3.4312n    4.0769     1.476     -0.0087619 
 760.p      2.         3.4312n    4.0769     1.476     -0.0087619 
 780.p      2.         3.4312n    4.0769     1.476     -0.0087619 
 800.p      2.         3.4312n    4.0769     1.476     -0.0087619 
 820.p      2.         3.4312n    4.0769     1.476     -0.0087619 
 840.p      2.         3.4312n    4.0769     1.476     -0.0087619 
 860.p      2.         3.4312n    4.0769     1.476     -0.0087619 
 880.p      2.         3.4312n    4.0769     1.476     -0.0087619 
 900.p      2.         3.4312n    4.0769     1.476     -0.0087619 
 920.p      2.         3.4312n    4.0769     1.476     -0.0087619 
 940.p      2.         3.4312n    4.0769     1.476     -0.0087619 
 960.p      2.         3.4312n    4.0769     1.476     -0.0087619 
 980.p      2.         3.4312n    4.0769     1.476     -0.0087619 
 1.n        2.         3.4313n    4.0769     1.476     -0.0087619 
 1.02n      2.         1.         1.6651     1.1725    -0.014092  
 1.04n      2.         1.         1.7785     1.4166    -0.0049692 
 1.06n      2.         1.         1.6899     1.1719    -0.013509  
 1.08n      2.         1.         1.6703     1.3282    -0.0044955 
 1.1n       2.         1.         1.6837     1.2477    -0.0137    
 1.12n      2.         1.         1.6766     1.2875    -0.0043992 
 1.14n      2.         1.         1.6802     1.2676    -0.013747  
 1.16n      2.         1.         1.6785     1.2775    -0.004376  
 1.18n      2.         1.         1.6793     1.2726    -0.013758  
 1.2n       2.         1.         1.6789     1.275     -0.0043704 
 1.22n      2.         1.         1.6791     1.2738    -0.013761  
 1.24n      2.         1.         1.679      1.2744    -0.0043689 
 1.26n      2.         1.         1.6791     1.2741    -0.013762  
 1.28n      2.         1.         1.6791     1.2742    -0.0043686 
 1.3n       2.         1.         1.6791     1.2742    -0.013762  
 1.32n      2.         1.         1.6791     1.2742    -0.0043685 
 1.34n      2.         1.         1.6791     1.2742    -0.013762  
 1.36n      2.         1.         1.6791     1.2742    -0.0043685 
 1.38n      2.         1.         1.6791     1.2742    -0.013762  
 1.4n       2.         1.         1.6791     1.2742    -0.0043685 
 1.42n      2.         1.         1.6791     1.2742    -0.013762  
 1.44n      2.         1.         1.6791     1.2742    -0.0043685 
 1.46n      2.         1.         1.6791     1.2742    -0.013762  
 1.48n      2.         1.         1.6791     1.2742    -0.0043685 
 1.5n       2.         1.         1.6791     1.2742    -0.013762  
